!Agilent Technologies,N5230C,MY49000750,A.09.42.22
!Agilent N5230C: A.09.42.22
!Date: Monday, December 15, 2025 11:48:29
!Correction: S11(Full 2 Port(1,2)) 
!S21(Full 2 Port(1,2)) 
!S12(Full 2 Port(1,2)) 
!S22(Full 2 Port(1,2)) 
!S2P File: Measurements: S11, S21, S12, S22:
# Hz S  RI   R 50
500000000 0.13826662 -0.11203618 -0.68287736 -0.67903101 -0.68215108 -0.67893422 0.11339085 -0.1352976
510000000 0.13704112 -0.12311813 -0.71227789 -0.64533502 -0.7118144 -0.64502388 0.11133365 -0.14407699
520000000 0.13444185 -0.13444601 -0.74088329 -0.61035067 -0.74065953 -0.61018759 0.10830637 -0.15381573
530000000 0.13109469 -0.14539626 -0.76747119 -0.5736295 -0.76743734 -0.57323545 0.10428578 -0.16360183
540000000 0.12715662 -0.15646888 -0.79208875 -0.53568161 -0.79276127 -0.53577292 0.10056361 -0.17342775
550000000 0.12334248 -0.16770856 -0.81572759 -0.49708438 -0.81536311 -0.49679032 0.095569208 -0.18337545
560000000 0.11798653 -0.17903455 -0.83645064 -0.45641547 -0.8361907 -0.45683026 0.090110846 -0.19344321
570000000 0.11190552 -0.19065067 -0.85503381 -0.41602671 -0.85520279 -0.41577768 0.083517514 -0.20343226
580000000 0.10484051 -0.20199534 -0.87202275 -0.37396514 -0.87185168 -0.37438822 0.077239349 -0.21305761
590000000 0.097120792 -0.21294057 -0.8874197 -0.33197609 -0.88693118 -0.33216101 0.070292421 -0.22298028
600000000 0.088538222 -0.22365363 -0.89960265 -0.2891002 -0.89949185 -0.28916374 0.062383246 -0.23245215
610000000 0.078599945 -0.23473494 -0.91003281 -0.24602859 -0.91015309 -0.24630539 0.05417427 -0.24162582
620000000 0.068308815 -0.24483705 -0.91863853 -0.20248701 -0.91863418 -0.2021399 0.045162413 -0.25022084
630000000 0.056623694 -0.25425237 -0.92532152 -0.15846285 -0.92497963 -0.15850934 0.035272371 -0.25849673
640000000 0.044929553 -0.26347986 -0.92941457 -0.11447369 -0.92957366 -0.11435014 0.02470823 -0.26637334
650000000 0.031484526 -0.27175891 -0.93162638 -0.070177853 -0.93126374 -0.07101734 0.013417627 -0.27345133
660000000 0.018096352 -0.27875629 -0.93098122 -0.02685318 -0.93138695 -0.026540367 0.0015257983 -0.28025755
670000000 0.0036019585 -0.28574017 -0.92887408 0.016721418 -0.92950839 0.016950801 -0.010873949 -0.28666285
680000000 -0.011228878 -0.2921949 -0.92527664 0.060048535 -0.92510104 0.060367931 -0.023773944 -0.29241961
690000000 -0.026291499 -0.29771689 -0.91845942 0.10321368 -0.91845697 0.10320041 -0.037978385 -0.29759866
700000000 -0.042732559 -0.30285117 -0.91003573 0.14602609 -0.91007727 0.1456677 -0.051965822 -0.30221328
710000000 -0.059555415 -0.30672362 -0.89959341 0.18798389 -0.8994962 0.18828775 -0.06706737 -0.3062875
720000000 -0.076877199 -0.30970407 -0.88754994 0.22898459 -0.88754296 0.22856054 -0.081905037 -0.30987647
730000000 -0.094213851 -0.31149349 -0.87311143 0.26860064 -0.87301916 0.26918474 -0.097484782 -0.31253001
740000000 -0.11231238 -0.31288326 -0.85772425 0.3081156 -0.85731941 0.30809489 -0.11313477 -0.31430978
750000000 -0.13014033 -0.31285942 -0.84046477 0.34523669 -0.84048742 0.34509403 -0.128236 -0.31608361
760000000 -0.15149078 -0.309762 -0.81646109 0.38923013 -0.81677473 0.38932672 -0.14579944 -0.31520838
770000000 -0.16818775 -0.30859119 -0.79739189 0.42088878 -0.79731309 0.42053261 -0.16050716 -0.31481281
780000000 -0.18709129 -0.30437484 -0.77488691 0.45523027 -0.77507216 0.45573235 -0.17696136 -0.31370506
790000000 -0.20568229 -0.29976982 -0.75022656 0.48868397 -0.75085121 0.48928359 -0.19274785 -0.31148872
800000000 -0.22421366 -0.29359543 -0.7243908 0.5212158 -0.72446531 0.52075934 -0.20981032 -0.30735615
810000000 -0.24321963 -0.28685781 -0.69808757 0.55203164 -0.69747782 0.55199856 -0.22632076 -0.3030335
820000000 -0.26099747 -0.27845925 -0.66910958 0.5819608 -0.66932511 0.58171427 -0.24352711 -0.29749036
830000000 -0.27840179 -0.26941621 -0.63923311 0.61009485 -0.640019 0.6100347 -0.26086152 -0.29149222
840000000 -0.29604584 -0.25900593 -0.60830718 0.63613129 -0.60873497 0.63615572 -0.27684399 -0.28437495
850000000 -0.31285575 -0.24777012 -0.57641864 0.66066372 -0.57614195 0.6608333 -0.29340127 -0.27697411
860000000 -0.32969067 -0.2359917 -0.54369247 0.68376446 -0.54328859 0.68357188 -0.31003201 -0.26803413
870000000 -0.3459273 -0.22279485 -0.50970274 0.70516348 -0.51039743 0.70519799 -0.32564223 -0.25920129
880000000 -0.36140692 -0.20816082 -0.47583795 0.72472864 -0.47567949 0.7246781 -0.34079608 -0.24864557
890000000 -0.37611473 -0.19206998 -0.44077352 0.74236393 -0.44107533 0.74213451 -0.35539988 -0.23742327
900000000 -0.39006147 -0.17586391 -0.40606937 0.75903541 -0.40582719 0.75949758 -0.37008521 -0.22544424
910000000 -0.40264484 -0.15805271 -0.37053978 0.77426225 -0.36989063 0.77396965 -0.38342729 -0.21198112
920000000 -0.41488457 -0.13956383 -0.33339101 0.78699499 -0.3334316 0.78653359 -0.39654091 -0.19808759
930000000 -0.42576233 -0.12107537 -0.29684651 0.79786336 -0.29696083 0.79843682 -0.40926781 -0.18360302
940000000 -0.43624994 -0.1017065 -0.2595419 0.80758166 -0.2594023 0.80816329 -0.42128134 -0.16752128
950000000 -0.44532442 -0.08155252 -0.22252253 0.81546843 -0.2221809 0.81553769 -0.43312228 -0.1513983
960000000 -0.45336747 -0.060734123 -0.18475743 0.82152832 -0.18465245 0.82142353 -0.4440648 -0.13414356
970000000 -0.46054354 -0.0396979 -0.14771937 0.82640934 -0.14719984 0.82601768 -0.45350152 -0.11622173
980000000 -0.46635818 -0.018096063 -0.11001851 0.82905465 -0.10989416 0.82872564 -0.46298698 -0.097914793
990000000 -0.47097802 0.0038735289 -0.072668977 0.82998943 -0.072538964 0.82967234 -0.47102624 -0.079319879
1000000000 -0.47438121 0.025791505 -0.03613722 0.82933545 -0.036243118 0.82925397 -0.47909707 -0.060279734
1010000000 -0.47658405 0.048942246 -2.9729223e-005 0.82702368 0.00051947898 0.82666153 -0.48519653 -0.040770087
1020000000 -0.47857428 0.0718721 0.036198683 0.82333833 0.036658615 0.82320905 -0.49106038 -0.019788614
1030000000 -0.47865185 0.094999216 0.071926028 0.81740868 0.072500013 0.81753647 -0.49586338 0.00072773284
1040000000 -0.4775928 0.11826134 0.10808304 0.81103998 0.10825044 0.81170321 -0.49988914 0.02146435
1050000000 -0.47473791 0.1414995 0.14254065 0.80272996 0.14271823 0.80270875 -0.50195348 0.042149566
1060000000 -0.47142559 0.16446933 0.17693301 0.79378968 0.17731279 0.79369336 -0.50349826 0.063843459
1070000000 -0.46690241 0.18721455 0.21076563 0.78191835 0.21111973 0.78194088 -0.50317627 0.084830277
1080000000 -0.46102917 0.20951293 0.24387272 0.77003098 0.24439144 0.77022439 -0.50319099 0.1069688
1090000000 -0.45407355 0.23183519 0.27676892 0.75657541 0.27720389 0.75628138 -0.50201756 0.12904544
1100000000 -0.44534963 0.25365579 0.30806014 0.74080855 0.30810103 0.74035132 -0.49901327 0.15109324
1110000000 -0.43613324 0.27496377 0.33896995 0.72456491 0.3390246 0.72420889 -0.49564183 0.1729854
1120000000 -0.42631972 0.29632944 0.3681998 0.70699143 0.36861166 0.7065689 -0.49068826 0.19518909
1130000000 -0.41462883 0.31651649 0.39738977 0.68738174 0.39800519 0.68809688 -0.48497373 0.21686277
1140000000 -0.40223065 0.33699864 0.42491099 0.66833735 0.42524767 0.66792232 -0.47838622 0.23827675
1150000000 -0.38897392 0.35604554 0.45147949 0.64795095 0.45201695 0.6475746 -0.47095537 0.25949618
1160000000 -0.37540451 0.3750644 0.47732386 0.62625265 0.47670734 0.62542337 -0.4618071 0.28015584
1170000000 -0.3596994 0.39300075 0.50202191 0.60369551 0.50250244 0.60310519 -0.45156622 0.30037901
1180000000 -0.34400389 0.41191119 0.5276379 0.58186489 0.52762747 0.58147806 -0.44222072 0.32099828
1190000000 -0.32655856 0.42841721 0.55062258 0.55680722 0.55066025 0.5568608 -0.4294453 0.34030926
1200000000 -0.30866912 0.44385046 0.57257307 0.53180265 0.57210451 0.53112549 -0.41604346 0.35914594
1210000000 -0.28954452 0.45831251 0.59413922 0.50564837 0.59337711 0.50515395 -0.4018001 0.37763229
1220000000 -0.27052993 0.4722161 0.61349952 0.47806916 0.613195 0.47794697 -0.38677922 0.39587021
1230000000 -0.25109869 0.48537385 0.63208407 0.45076388 0.63209784 0.45065644 -0.37102681 0.41326192
1240000000 -0.23024173 0.49761194 0.64920664 0.42233723 0.64933193 0.42229891 -0.35430354 0.43052447
1250000000 -0.20928648 0.50845468 0.66537905 0.39374092 0.66501176 0.39333123 -0.33676198 0.44658071
1260000000 -0.18783483 0.51886463 0.68037426 0.36405411 0.67970145 0.36366183 -0.31845075 0.46227092
1270000000 -0.16566974 0.52846688 0.69382453 0.33474508 0.69306296 0.33386403 -0.29971188 0.47676992
1280000000 -0.14342749 0.53604686 0.70602041 0.30378899 0.70546103 0.30397785 -0.27982619 0.49103433
1290000000 -0.12067867 0.54279035 0.71697551 0.27340513 0.71657795 0.27345619 -0.25938889 0.50309044
1300000000 -0.097959965 0.54927891 0.72786295 0.24250205 0.72710842 0.24219258 -0.23851854 0.51516181
1310000000 -0.074717358 0.55400532 0.73584044 0.21073088 0.73557657 0.21042106 -0.21613599 0.52561206
1320000000 -0.050872058 0.55767816 0.74358726 0.17855828 0.74269968 0.17839214 -0.19372752 0.53560454
1330000000 -0.027678099 0.56055671 0.74906564 0.14666001 0.74870008 0.1469343 -0.17099668 0.54406857
1340000000 -0.0037165894 0.56161469 0.75390011 0.11488762 0.75377196 0.11465082 -0.1470743 0.55205828
1350000000 0.019366523 0.56117696 0.75698537 0.082437806 0.75691229 0.082220584 -0.12286723 0.55890417
1360000000 0.042832013 0.56038195 0.75907844 0.050076477 0.75887793 0.050013606 -0.098231345 0.5645414
1370000000 0.065630347 0.55888975 0.75906706 0.017659245 0.75980908 0.01778158 -0.07311742 0.56884009
1380000000 0.088826649 0.55616271 0.75874615 -0.014656121 0.7580868 -0.014345844 -0.047897678 0.57208109
1390000000 0.11151369 0.55328459 0.75665462 -0.046887685 0.75626695 -0.046726461 -0.022762654 0.57446098
1400000000 0.13433777 0.548397 0.75360906 -0.079265885 0.75292319 -0.079252049 0.0030664846 0.57592368
1410000000 0.15661342 0.54318225 0.74896795 -0.11071116 0.74912512 -0.11087289 0.028578956 0.57609457
1420000000 0.1784977 0.53644276 0.74298513 -0.14182588 0.74232376 -0.14205173 0.05424726 0.57451695
1430000000 0.19963704 0.52856588 0.73543143 -0.17278042 0.73529959 -0.1729341 0.079632901 0.57125849
1440000000 0.22058342 0.51957011 0.72728539 -0.20355293 0.72693628 -0.20385723 0.10515416 0.56677771
1450000000 0.24122852 0.51011533 0.71795595 -0.23375908 0.71759427 -0.23381592 0.12976952 0.56143922
1460000000 0.26035291 0.50006151 0.70723641 -0.26458016 0.70656079 -0.2644566 0.15506963 0.55443805
1470000000 0.27956626 0.48927662 0.69509399 -0.29407513 0.69492906 -0.29433823 0.17980112 0.54633003
1480000000 0.29849964 0.47774205 0.68166262 -0.32428801 0.68172938 -0.32363796 0.20455207 0.53782523
1490000000 0.31707552 0.46608853 0.66841084 -0.35324922 0.66801405 -0.35297155 0.22890419 0.52758938
1500000000 0.33666748 0.45145452 0.65105116 -0.38347644 0.65098602 -0.38353983 0.25418705 0.51501948
1510000000 0.35393205 0.4367885 0.63250589 -0.41156197 0.6321438 -0.41135648 0.27787226 0.50176865
1520000000 0.37076509 0.42373729 0.61597043 -0.43740964 0.61588585 -0.43754506 0.2996777 0.48875684
1530000000 0.38550237 0.40753937 0.59567916 -0.46173361 0.59601051 -0.46220613 0.32113183 0.47383478
1540000000 0.40045556 0.39272207 0.57639652 -0.48711976 0.57594049 -0.48682916 0.34207612 0.45686293
1550000000 0.41517004 0.37698036 0.55503255 -0.5118295 0.55459672 -0.51169229 0.36207795 0.44005924
1560000000 0.42854217 0.35998678 0.53303307 -0.535469 0.53257304 -0.53494167 0.38175967 0.42202809
1570000000 0.441984 0.34327579 0.5095405 -0.55808282 0.509229 -0.55775625 0.39926854 0.4024545
1580000000 0.45326683 0.32494348 0.48513874 -0.57935935 0.4851898 -0.57935888 0.41716588 0.38288954
1590000000 0.46612433 0.30690145 0.46015206 -0.60113901 0.45990133 -0.60083812 0.4334639 0.36249387
1600000000 0.4766455 0.28819901 0.43396348 -0.62124276 0.4340221 -0.62129182 0.44931257 0.34018701
1610000000 0.48681217 0.26899225 0.40707791 -0.64039147 0.40682626 -0.63949132 0.46356586 0.31726915
1620000000 0.49554691 0.24939251 0.37960881 -0.65756065 0.37919423 -0.65732235 0.47695738 0.29326758
1630000000 0.50338787 0.22900295 0.35053885 -0.673518 0.35113567 -0.67435521 0.48915657 0.26907691
1640000000 0.50994766 0.20955278 0.32122844 -0.68885171 0.32134378 -0.68889463 0.49983066 0.24400103
1650000000 0.5165332 0.18907598 0.29148579 -0.70282972 0.29151389 -0.7024706 0.50914162 0.2184951
1660000000 0.52230418 0.16915914 0.26046705 -0.71509016 0.26043218 -0.71485281 0.51704443 0.19305085
1670000000 0.52729827 0.1485398 0.22966655 -0.72636169 0.2295488 -0.72677934 0.52433497 0.1673371
1680000000 0.53153127 0.1282545 0.19797599 -0.73671395 0.19795984 -0.73713231 0.53018522 0.14130197
1690000000 0.53438115 0.10727786 0.16589496 -0.74548215 0.16563235 -0.74505037 0.53415948 0.1152347
1700000000 0.53606063 0.086244486 0.13309176 -0.75200611 0.13292436 -0.75236511 0.53662264 0.0883632
1710000000 0.53687847 0.065612629 0.10041784 -0.7581355 0.10030704 -0.75886989 0.53787476 0.061882176
1720000000 0.53725135 0.045065138 0.066788897 -0.7638694 0.066780359 -0.76244909 0.53780484 0.035282202
1730000000 0.53636289 0.024577295 0.033547666 -0.76656544 0.03356475 -0.76722473 0.53652221 0.0084576393
1740000000 0.53486258 0.0040308516 -0.00010370829 -0.76875257 -0.00018712792 -0.76836151 0.53361893 -0.017912176
1750000000 0.53251606 -0.016177835 -0.033705894 -0.76906109 -0.033470333 -0.76883256 0.52911443 -0.044728495
1760000000 0.52868617 -0.036424898 -0.067646466 -0.7666074 -0.067155629 -0.76700479 0.52315164 -0.070644997
1770000000 0.52527696 -0.056036621 -0.10095043 -0.76430166 -0.10114579 -0.7644363 0.51624405 -0.096897684
1780000000 0.52128452 -0.075384416 -0.13491862 -0.76179558 -0.13467005 -0.75902683 0.50761461 -0.12161526
1790000000 0.515239 -0.09425427 -0.16858262 -0.75445288 -0.16851239 -0.75435168 0.49843624 -0.14669502
1800000000 0.50933468 -0.11315348 -0.20199263 -0.74862635 -0.20220552 -0.74893177 0.48816642 -0.17085217
1810000000 0.50249225 -0.13172312 -0.23557095 -0.739788 -0.23520139 -0.73956937 0.47537115 -0.19383293
1820000000 0.49465761 -0.14981051 -0.26844126 -0.73013693 -0.2682237 -0.73020589 0.46164748 -0.21580683
1830000000 0.48624378 -0.16687129 -0.30085787 -0.71879733 -0.30056721 -0.71843231 0.446004 -0.23642877
1840000000 0.47625092 -0.1841071 -0.33348337 -0.70624465 -0.33296791 -0.70602739 0.43134823 -0.25652865
1850000000 0.46724907 -0.20058651 -0.36504406 -0.69209415 -0.3648966 -0.69199145 0.41413936 -0.27581176
1860000000 0.45647648 -0.21670322 -0.3962698 -0.67558956 -0.396139 -0.67624611 0.39693353 -0.2939426
1870000000 0.44598067 -0.23266992 -0.42683798 -0.6591413 -0.42726421 -0.6593141 0.37848195 -0.31156638
1880000000 0.43449697 -0.24744341 -0.45678556 -0.64015788 -0.45771587 -0.64050686 0.35904747 -0.32839543
1890000000 0.42284667 -0.26263416 -0.48747218 -0.62079716 -0.48699784 -0.62018079 0.3395308 -0.34340617
1900000000 0.41008726 -0.27667582 -0.51587415 -0.59904611 -0.51551241 -0.59878725 0.31840673 -0.35795662
1910000000 0.39721695 -0.29078102 -0.54330987 -0.57598513 -0.54284215 -0.57581443 0.29729187 -0.36991829
1920000000 0.38295522 -0.30351403 -0.57011455 -0.55151135 -0.57005888 -0.5514878 0.27544001 -0.38093472
1930000000 0.36915311 -0.31540576 -0.59603983 -0.52566057 -0.59618574 -0.52573669 0.25368592 -0.39160189
1940000000 0.35424715 -0.32744086 -0.61981982 -0.49871469 -0.61976141 -0.4985525 0.23088557 -0.39962164
1950000000 0.33862576 -0.33872935 -0.64289421 -0.47109121 -0.6425786 -0.47086176 0.20791893 -0.40651247
1960000000 0.32239547 -0.34854099 -0.66395855 -0.44186553 -0.66422856 -0.44183055 0.18489264 -0.4118661
1970000000 0.30588281 -0.35812095 -0.68487662 -0.41220829 -0.68510896 -0.41225865 0.16215824 -0.41593388
1980000000 0.28894287 -0.367055 -0.70431215 -0.38126558 -0.70456439 -0.38164541 0.13976115 -0.41871396
1990000000 0.27263823 -0.37480247 -0.72315848 -0.34999329 -0.72328442 -0.35019347 0.11695456 -0.42036924
2000000000 0.25586262 -0.38170347 -0.74018687 -0.31690723 -0.73960906 -0.31711122 0.094566301 -0.41968185
2010000000 0.23856795 -0.38753235 -0.75588018 -0.283059 -0.75603729 -0.28315124 0.072702006 -0.41814879
2020000000 0.22098792 -0.39223754 -0.76898217 -0.24792597 -0.7686938 -0.24827276 0.05167681 -0.41527453
2030000000 0.20410258 -0.39709321 -0.78209352 -0.21292463 -0.78150028 -0.21245669 0.031079831 -0.41199055
2040000000 0.18583891 -0.40031007 -0.79219669 -0.1764639 -0.7924329 -0.17662013 0.010479536 -0.40758312
2050000000 0.1682563 -0.40362039 -0.80251116 -0.14023398 -0.80220538 -0.140264 -0.0090650329 -0.40267596
2060000000 0.15007603 -0.40519992 -0.80913454 -0.10301641 -0.80899036 -0.10280587 -0.02749737 -0.3957462
2070000000 0.13177681 -0.40593186 -0.81497979 -0.065009445 -0.81524301 -0.065174721 -0.045547746 -0.38816297
2080000000 0.11401661 -0.40613928 -0.81979465 -0.026695263 -0.81961995 -0.02658486 -0.063115172 -0.38012606
2090000000 0.096096225 -0.40501425 -0.82149822 0.012242557 -0.82198262 0.012337495 -0.079232156 -0.37096074
2100000000 0.077768773 -0.40259147 -0.8206771 0.050737292 -0.82161844 0.050532848 -0.094352722 -0.36010268
2110000000 0.060100544 -0.40002701 -0.8201493 0.090227284 -0.81984097 0.089931838 -0.10842095 -0.34935874
2120000000 0.042784415 -0.39556208 -0.81604022 0.12915584 -0.81596339 0.12931466 -0.12199003 -0.33816084
2130000000 0.026356548 -0.39032125 -0.81020647 0.16843082 -0.81031317 0.16847993 -0.13459648 -0.32665649
2140000000 0.010182838 -0.38479692 -0.8031109 0.20793463 -0.80166215 0.20775083 -0.1460572 -0.31387162
2150000000 -0.0059823412 -0.37882325 -0.79311705 0.24667194 -0.7926358 0.2467669 -0.15694435 -0.3008436
2160000000 -0.021527728 -0.37206715 -0.78345919 0.28636286 -0.78237104 0.28608093 -0.16783962 -0.28836831
2170000000 -0.037127018 -0.36411005 -0.77045476 0.32494137 -0.77106357 0.32512882 -0.17687444 -0.27563006
2180000000 -0.051608697 -0.35612303 -0.75626117 0.36377558 -0.75506252 0.36301938 -0.18482189 -0.26180071
2190000000 -0.064949498 -0.34604114 -0.73694891 0.4001056 -0.73682219 0.40041128 -0.19111741 -0.24788992
2200000000 -0.077981934 -0.3359246 -0.71632212 0.43644756 -0.71503997 0.43595186 -0.19416463 -0.23312218
2210000000 -0.090104602 -0.32452989 -0.69369829 0.47094107 -0.6928522 0.47034052 -0.19701211 -0.22005564
2220000000 -0.10235319 -0.31368417 -0.66961932 0.50536662 -0.66983974 0.50500971 -0.19889145 -0.20812528
2230000000 -0.11344197 -0.30193779 -0.64412206 0.53726047 -0.64407128 0.53770071 -0.19959496 -0.19640583
2240000000 -0.12367751 -0.28908643 -0.61609209 0.56833303 -0.61616403 0.56876045 -0.19994083 -0.18537915
2250000000 -0.13413838 -0.27618468 -0.58793491 0.59849143 -0.58789355 0.59816498 -0.19967061 -0.17510967
2260000000 -0.14303945 -0.26243025 -0.55754292 0.62667596 -0.55774075 0.62710828 -0.19830887 -0.16591276
2270000000 -0.1510665 -0.24911095 -0.52575254 0.65392786 -0.52607286 0.65392178 -0.1967614 -0.15764534
2280000000 -0.1577954 -0.23499939 -0.49294552 0.67864043 -0.49268776 0.6786229 -0.19527949 -0.14998236
2290000000 -0.16366369 -0.22036201 -0.45823231 0.70168447 -0.45858723 0.70170134 -0.19361643 -0.14368296
2300000000 -0.16907597 -0.20597832 -0.42316261 0.72383893 -0.42208254 0.72243273 -0.19211912 -0.13810885
2310000000 -0.17244573 -0.1903808 -0.38544619 0.74188781 -0.38577193 0.74268085 -0.19121893 -0.13412151
2320000000 -0.17605148 -0.17487033 -0.3472749 0.75891495 -0.34744966 0.75830507 -0.18965025 -0.1290125
2330000000 -0.17743106 -0.15933934 -0.30904299 0.77410817 -0.30885437 0.77359027 -0.18848628 -0.12551112
2340000000 -0.17809901 -0.14390858 -0.26903394 0.78635663 -0.26951459 0.78608221 -0.18770459 -0.12332523
2350000000 -0.17917614 -0.12816888 -0.23006263 0.79905635 -0.23039065 0.79876274 -0.18793228 -0.12069997
2360000000 -0.17869018 -0.11292744 -0.19055502 0.8116914 -0.19048116 0.81052756 -0.18916465 -0.11884353
2370000000 -0.176081 -0.097565435 -0.14959279 0.81900489 -0.14960387 0.81932294 -0.19030212 -0.1169515
